T2238 000:082.092   SEGGER J-Link V6.86 Log File
T2238 000:082.280   DLL Compiled: Sep 24 2020 17:31:31
T2238 000:082.292   Logging started @ 2023-01-24 11:12
T2238 000:082.303 - 82.309ms
T2238 000:082.321 JLINK_SetWarnOutHandler(...)
T2238 000:082.335 - 0.019ms
T2238 000:082.348 JLINK_OpenEx(...)
T2238 000:085.718   Firmware: J-Link OpenSDA compiled May 27 2019 10:59:53
T2238 000:133.315   Hardware: V1.00
T2238 000:133.350   S/N: 621000000
T2238 000:133.375   OEM: SEGGER
T2238 000:133.392   Feature(s): None
T2238 000:135.423   TELNET listener socket opened on port 19021
T2238 000:135.667   WEBSRV Starting webserver
T2238 000:135.833   WEBSRV Webserver running on local port 19080
T2238 000:135.854 - 53.512ms returns "O.K."
T2238 000:135.884 JLINK_GetEmuCaps()
T2238 000:135.896 - 0.017ms returns 0x986A5A33
T2238 000:135.913 JLINK_TIF_GetAvailable(...)
T2238 000:136.411 - 0.527ms
T2238 000:136.458 JLINK_SetErrorOutHandler(...)
T2238 000:136.471 - 0.018ms
T2238 000:136.501 JLINK_ExecCommand("ProjectFile = "C:\Users\arkad\Desktop\rapacz_tmp\JLinkSettings.ini"", ...). 
T2238 000:147.175 - 10.694ms returns 0x00
T2238 000:152.917 JLINK_ExecCommand("Device = MKL05Z32xxx4", ...). 
T2238 000:158.104   Device "MKL05Z32XXX4" selected.
T2238 000:158.801 - 5.869ms returns 0x00
T2238 000:158.846 JLINK_GetHardwareVersion()
T2238 000:158.859 - 0.018ms returns 10000
T2238 000:158.886 JLINK_GetDLLVersion()
T2238 000:158.898 - 0.017ms returns 68600
T2238 000:158.911 JLINK_GetOEMString(...)
T2238 000:158.924 JLINK_GetFirmwareString(...)
T2238 000:158.935 - 0.017ms
T2238 000:170.487 JLINK_GetDLLVersion()
T2238 000:170.526 - 0.045ms returns 68600
T2238 000:170.540 JLINK_GetCompileDateTime()
T2238 000:170.551 - 0.016ms
T2238 000:174.181 JLINK_GetFirmwareString(...)
T2238 000:174.220 - 0.045ms
T2238 000:177.580 JLINK_GetHardwareVersion()
T2238 000:177.616 - 0.041ms returns 10000
T2238 000:182.154 JLINK_GetSN()
T2238 000:182.190 - 0.041ms returns 621000000
T2238 000:186.485 JLINK_GetOEMString(...)
T2238 000:190.512 JLINK_TIF_Select(JLINKARM_TIF_SWD)
T2238 000:192.348 - 1.864ms returns 0x00
T2238 000:192.389 JLINK_HasError()
T2238 000:192.414 JLINK_SetSpeed(2000)
T2238 000:192.533 - 0.135ms
T2238 000:192.561 JLINK_GetId()
T2238 000:197.344   ConfigTargetSettings() start
T2238 000:197.378    J-Link Script File: Executing ConfigTargetSettings()
T2238 000:200.635   ConfigTargetSettings() end
T2238 000:203.835   InitTarget() start
T2238 000:203.877    J-Link Script File: Executing InitTarget()
T2238 000:207.464   InitTarget()
T2238 000:281.449   InitTarget() end
T2238 000:286.657   Found SW-DP with ID 0x0BC11477
T2238 000:295.304   Old FW that does not support reading DPIDR via DAP jobs
T2238 000:308.342   Unknown DP version. Assuming DPv0
T2238 000:311.372   AP map detection skipped. Manually configured AP map found.
T2238 000:314.631   AP[0]: AHB-AP (IDR: Not set)
T2238 000:317.330   AP[1]: MEM-AP (IDR: Not set)
T2238 000:331.493   AP[0]: Core found
T2238 000:334.692   AP[0]: AHB-AP ROM base: 0xF0002000
T2238 000:343.262   CPUID register: 0x410CC600. Implementer code: 0x41 (ARM)
T2238 000:346.292   Found Cortex-M0 r0p0, Little endian.
T2238 000:448.728   -- Max. mem block: 0x00001350
T2238 000:448.777   CPU_ReadMem(4 bytes @ 0xE000EDF0)
T2238 000:449.732   CPU_WriteMem(4 bytes @ 0xE000EDF0)
T2238 000:450.306   CPU_ReadMem(4 bytes @ 0xE0002000)
T2238 000:454.416   FPUnit: 2 code (BP) slots and 0 literal slots
T2238 000:454.451   CPU_ReadMem(4 bytes @ 0xE000EDFC)
T2238 000:455.343   CPU_WriteMem(4 bytes @ 0xE000EDFC)
T2238 000:456.311   CPU_ReadMem(4 bytes @ 0xE0001000)
T2238 000:457.313   CPU_WriteMem(4 bytes @ 0xE0001000)
T2238 000:461.477   CoreSight components:
T2238 000:464.385   ROMTbl[0] @ F0002000
T2238 000:464.429   CPU_ReadMem(64 bytes @ 0xF0002000)
T2238 000:465.835   CPU_ReadMem(32 bytes @ 0xF0000FE0)
T2238 000:469.798   ROMTbl[0][0]: F0000000, CID: B105900D, PID: 000BB932 MTB-M0+
T2238 000:469.832   CPU_ReadMem(32 bytes @ 0xF0001FE0)
T2238 000:474.368   ROMTbl[0][1]: F0001000, CID: B105900D, PID: 0008E000 MTBDWT
T2238 000:474.507   CPU_ReadMem(32 bytes @ 0xE00FFFE0)
T2238 000:478.843   ROMTbl[0][2]: E00FF000, CID: B105100D, PID: 000BB4C0 ROM Table
T2238 000:482.057   ROMTbl[1] @ E00FF000
T2238 000:482.108   CPU_ReadMem(64 bytes @ 0xE00FF000)
T2238 000:483.389   CPU_ReadMem(32 bytes @ 0xE000EFE0)
T2238 000:487.479   ROMTbl[1][0]: E000E000, CID: B105E00D, PID: 000BB008 SCS
T2238 000:487.517   CPU_ReadMem(32 bytes @ 0xE0001FE0)
T2238 000:492.142   ROMTbl[1][1]: E0001000, CID: B105E00D, PID: 000BB00A DWT
T2238 000:492.192   CPU_ReadMem(32 bytes @ 0xE0002FE0)
T2238 000:496.839   ROMTbl[1][2]: E0002000, CID: B105E00D, PID: 000BB00B FPB
T2238 000:498.315 - 305.764ms returns 0x0BC11477
T2238 000:498.342 JLINK_GetDLLVersion()
T2238 000:498.353 - 0.016ms returns 68600
T2238 000:498.367 JLINK_CORE_GetFound()
T2238 000:498.378 - 0.016ms returns 0x60000FF
T2238 000:498.392 JLINK_GetDebugInfo(0x100 = JLINKARM_ROM_TABLE_ADDR_INDEX)
T2238 000:498.405   Value=0xF0002000
T2238 000:498.421 - 0.033ms returns 0
T2238 000:501.481 JLINK_GetDebugInfo(0x100 = JLINKARM_ROM_TABLE_ADDR_INDEX)
T2238 000:501.508   Value=0xF0002000
T2238 000:501.524 - 0.048ms returns 0
T2238 000:501.537 JLINK_GetDebugInfo(0x101 = JLINKARM_DEBUG_INFO_ETM_ADDR_INDEX)
T2238 000:501.548   Value=0x00000000
T2238 000:501.563 - 0.032ms returns 0
T2238 000:501.583 JLINK_ReadMemEx(0xE0041FF0, 0x10 Bytes, Flags = 0x02000004)
T2238 000:501.618   CPU_ReadMem(16 bytes @ 0xE0041FF0)
T2238 000:502.332   Data:  00 00 00 00 00 00 00 00 00 00 00 00 00 00 00 00
T2238 000:502.350 - 0.772ms returns 16 (0x10)
T2238 000:502.364 JLINK_GetDebugInfo(0x102 = JLINKARM_DEBUG_INFO_MTB_ADDR_INDEX)
T2238 000:502.375   Value=0xF0000000
T2238 000:502.391 - 0.032ms returns 0
T2238 000:502.403 JLINK_CORE_GetFound()
T2238 000:502.414 - 0.016ms returns 0x60000FF
T2238 000:502.426 JLINK_GetDebugInfo(0x103 = JLINKARM_DEBUG_INFO_TPIU_ADDR_INDEX)
T2238 000:502.437   Value=0x00000000
T2238 000:502.452 - 0.031ms returns 0
T2238 000:502.465 JLINK_ReadMemEx(0xE0040FF0, 0x10 Bytes, Flags = 0x02000004)
T2238 000:502.479   CPU_ReadMem(16 bytes @ 0xE0040FF0)
T2238 000:503.365   Data:  00 00 00 00 00 00 00 00 00 00 00 00 00 00 00 00
T2238 000:503.392 - 0.934ms returns 16 (0x10)
T2238 000:503.410 JLINK_GetDebugInfo(0x104 = JLINKARM_DEBUG_INFO_ITM_ADDR_INDEX)
T2238 000:503.424   Value=0xE0000000
T2238 000:503.442 - 0.038ms returns 0
T2238 000:503.457 JLINK_GetDebugInfo(0x105 = JLINKARM_DEBUG_INFO_DWT_ADDR_INDEX)
T2238 000:503.470   Value=0xE0001000
T2238 000:503.488 - 0.038ms returns 0
T2238 000:503.502 JLINK_GetDebugInfo(0x106 = JLINKARM_DEBUG_INFO_FPB_ADDR_INDEX)
T2238 000:503.516   Value=0xE0002000
T2238 000:503.534 - 0.037ms returns 0
T2238 000:503.548 JLINK_GetDebugInfo(0x107 = JLINKARM_DEBUG_INFO_NVIC_ADDR_INDEX)
T2238 000:503.561   Value=0xE000E000
T2238 000:503.578 - 0.037ms returns 0
T2238 000:503.593 JLINK_GetDebugInfo(0x10C = JLINKARM_DEBUG_INFO_DBG_ADDR_INDEX)
T2238 000:503.606   Value=0xE000EDF0
T2238 000:503.624 - 0.037ms returns 0
T2238 000:503.638 JLINK_GetDebugInfo(0x01 = Unknown)
T2238 000:503.651   Value=0x00000000
T2238 000:503.669 - 0.037ms returns 0
T2238 000:503.683 JLINK_ReadMemU32(0xE000ED00, 0x1 Items)
T2238 000:503.702   CPU_ReadMem(4 bytes @ 0xE000ED00)
T2238 000:504.319   Data:  00 C6 0C 41
T2238 000:504.371   Debug reg: CPUID
T2238 000:504.389 - 0.711ms returns 1 (0x1)
T2238 000:504.410 JLINK_GetDebugInfo(0x10F = JLINKARM_DEBUG_INFO_HAS_CORTEX_M_SECURITY_EXT_INDEX)
T2238 000:504.424   Value=0x00000000
T2238 000:504.440 - 0.035ms returns 0
T2238 000:504.453 JLINK_HasError()
T2238 000:504.467 JLINK_SetResetType(JLINKARM_CM3_RESET_TYPE_NORMAL)
T2238 000:504.479 - 0.017ms returns JLINKARM_CM3_RESET_TYPE_NORMAL
T2238 000:504.492 JLINK_Reset()
T2238 000:504.528   CPU is running
T2238 000:504.548   CPU_WriteMem(4 bytes @ 0xE000EDF0)
T2238 000:505.323   CPU is running
T2238 000:505.347   CPU_WriteMem(4 bytes @ 0xE000EDFC)
T2238 000:509.491   Reset: Halt core after reset via DEMCR.VC_CORERESET.
T2238 000:514.532   Reset: Reset device via AIRCR.SYSRESETREQ.
T2238 000:514.579   CPU is running
T2238 000:514.599   CPU_WriteMem(4 bytes @ 0xE000ED0C)
T2238 000:570.754   CPU_ReadMem(4 bytes @ 0xE000EDF0)
T2238 000:571.326   CPU_ReadMem(4 bytes @ 0xE000EDF0)
T2238 000:572.325   CPU is running
T2238 000:572.344   CPU_WriteMem(4 bytes @ 0xE000EDF0)
T2238 000:573.353   CPU is running
T2238 000:573.381   CPU_WriteMem(4 bytes @ 0xE000EDFC)
T2238 000:579.461   CPU_ReadMem(4 bytes @ 0xE000EDF0)
T2238 000:585.881   CPU_WriteMem(4 bytes @ 0xE0002000)
T2238 000:586.767   CPU_ReadMem(4 bytes @ 0xE000EDFC)
T2238 000:587.327   CPU_ReadMem(4 bytes @ 0xE0001000)
T2238 000:588.327   CPU_WriteMem(4 bytes @ 0xE0001000)
T2238 000:589.329 - 84.844ms
T2238 000:589.353 JLINK_Halt()
T2238 000:589.364 - 0.017ms returns 0x00
T2238 000:589.379 JLINK_ReadMemU32(0xE000EDF0, 0x1 Items)
T2238 000:589.397   CPU_ReadMem(4 bytes @ 0xE000EDF0)
T2238 000:590.358   Data:  03 00 03 00
T2238 000:590.385   Debug reg: DHCSR
T2238 000:590.404 - 1.032ms returns 1 (0x1)
T2238 000:590.486 JLINK_WriteU32_64(0xE000EDF0, 0xA05F0003)
T2238 000:590.505   Debug reg: DHCSR
T2238 000:590.539   CPU_WriteMem(4 bytes @ 0xE000EDF0)
T2238 000:591.325 - 0.847ms returns 0 (0x00000000)
T2238 000:591.342 JLINK_WriteU32_64(0xE000EDFC, 0x01000000)
T2238 000:591.354   Debug reg: DEMCR
T2238 000:591.374   CPU_WriteMem(4 bytes @ 0xE000EDFC)
T2238 000:592.355 - 1.027ms returns 0 (0x00000000)
T2238 000:611.966 JLINK_GetHWStatus(...)
T2238 000:612.338 - 0.385ms returns 0
T2238 000:623.719 JLINK_GetNumBPUnits(Type = 0xFFFFFF00)
T2238 000:623.759 - 0.046ms returns 0x02
T2238 000:623.773 JLINK_GetNumBPUnits(Type = 0xF0)
T2238 000:623.785 - 0.017ms returns 0x2000
T2238 000:623.798 JLINK_GetNumWPUnits()
T2238 000:623.808 - 0.016ms returns 2
T2238 000:636.527 JLINK_GetSpeed()
T2238 000:636.558 - 0.037ms returns 1429
T2238 000:645.297 JLINK_ReadMemU32(0xE000E004, 0x1 Items)
T2238 000:645.349   CPU_ReadMem(4 bytes @ 0xE000E004)
T2238 000:646.366   Data:  00 00 00 00
T2238 000:646.409 - 1.119ms returns 1 (0x1)
T2238 000:646.434 JLINK_Halt()
T2238 000:646.445 - 0.017ms returns 0x00
T2238 000:646.458 JLINK_IsHalted()
T2238 000:646.471 - 0.018ms returns TRUE
T2238 000:650.854 JLINK_WriteMem(0x1FFFFC00, 0x5D0 Bytes, ...)
T2238 000:650.876   Data:  00 BE 0A E0 0D 78 2D 06 68 40 08 24 40 00 00 D3 ...
T2238 000:651.313   CPU_WriteMem(1488 bytes @ 0x1FFFFC00)
T2238 000:668.385 - 17.560ms returns 0x5D0
T2238 000:668.497 JLINK_HasError()
T2238 000:668.514 JLINK_WriteReg(R0, 0x00000000)
T2238 000:668.532 - 0.023ms returns 0
T2238 000:668.545 JLINK_WriteReg(R1, 0x00B71B00)
T2238 000:668.557 - 0.017ms returns 0
T2238 000:668.569 JLINK_WriteReg(R2, 0x00000001)
T2238 000:668.581 - 0.017ms returns 0
T2238 000:668.593 JLINK_WriteReg(R3, 0x00000000)
T2238 000:668.605 - 0.016ms returns 0
T2238 000:668.617 JLINK_WriteReg(R4, 0x00000000)
T2238 000:668.628 - 0.016ms returns 0
T2238 000:668.640 JLINK_WriteReg(R5, 0x00000000)
T2238 000:668.652 - 0.017ms returns 0
T2238 000:668.664 JLINK_WriteReg(R6, 0x00000000)
T2238 000:668.676 - 0.017ms returns 0
T2238 000:668.688 JLINK_WriteReg(R7, 0x00000000)
T2238 000:668.699 - 0.016ms returns 0
T2238 000:668.711 JLINK_WriteReg(R8, 0x00000000)
T2238 000:668.733 - 0.026ms returns 0
T2238 000:668.745 JLINK_WriteReg(R9, 0x200001C8)
T2238 000:668.756 - 0.016ms returns 0
T2238 000:668.769 JLINK_WriteReg(R10, 0x00000000)
T2238 000:668.780 - 0.017ms returns 0
T2238 000:668.792 JLINK_WriteReg(R11, 0x00000000)
T2238 000:668.804 - 0.016ms returns 0
T2238 000:668.816 JLINK_WriteReg(R12, 0x00000000)
T2238 000:668.828 - 0.017ms returns 0
T2238 000:668.840 JLINK_WriteReg(R13 (SP), 0x20000C00)
T2238 000:668.852 - 0.017ms returns 0
T2238 000:668.864 JLINK_WriteReg(R14, 0x1FFFFC01)
T2238 000:668.876 - 0.016ms returns 0
T2238 000:668.888 JLINK_WriteReg(R15 (PC), 0x1FFFFC20)
T2238 000:668.903 - 0.020ms returns 0
T2238 000:668.915 JLINK_WriteReg(XPSR, 0x01000000)
T2238 000:668.927 - 0.017ms returns 0
T2238 000:668.939 JLINK_WriteReg(MSP, 0x20000C00)
T2238 000:668.959 - 0.025ms returns 0
T2238 000:668.972 JLINK_WriteReg(PSP, 0x20000C00)
T2238 000:668.983 - 0.017ms returns 0
T2238 000:668.995 JLINK_WriteReg(CFBP, 0x00000000)
T2238 000:669.007 - 0.017ms returns 0
T2238 000:669.019 JLINK_SetBPEx(Addr = 0x1FFFFC00, Type = 0xFFFFFFF2)
T2238 000:669.033 - 0.019ms returns 0x00000001
T2238 000:669.046 JLINK_Go()
T2238 000:669.063   CPU_WriteMem(4 bytes @ 0xE0002000)
T2238 000:669.766   CPU_ReadMem(4 bytes @ 0xE0001000)
T2238 000:670.338   CPU_WriteMem(4 bytes @ 0xE0001000)
T2238 000:670.357   CPU_WriteMem(4 bytes @ 0xE0002008)
T2238 000:670.374   CPU_WriteMem(4 bytes @ 0xE000200C)
T2238 000:672.340   CPU_WriteMem(4 bytes @ 0xE0001004)
T2238 000:679.349 - 10.327ms
T2238 000:679.385 JLINK_IsHalted()
T2238 000:685.478 - 6.108ms returns TRUE
T2238 000:685.503 JLINK_ReadReg(R15 (PC))
T2238 000:685.518 - 0.020ms returns 0x1FFFFC00
T2238 000:685.531 JLINK_ClrBPEx(BPHandle = 0x00000001)
T2238 000:685.543 - 0.018ms returns 0x00
T2238 000:685.556 JLINK_ReadReg(R0)
T2238 000:685.567 - 0.017ms returns 0x00000000
T2238 000:686.498 JLINK_HasError()
T2238 000:686.519 JLINK_WriteReg(R0, 0x00000000)
T2238 000:686.534 - 0.020ms returns 0
T2238 000:686.547 JLINK_WriteReg(R1, 0x00000400)
T2238 000:686.558 - 0.017ms returns 0
T2238 000:686.571 JLINK_WriteReg(R2, 0x000000FF)
T2238 000:686.582 - 0.017ms returns 0
T2238 000:686.594 JLINK_WriteReg(R3, 0x00000000)
T2238 000:686.606 - 0.016ms returns 0
T2238 000:686.618 JLINK_WriteReg(R4, 0x00000000)
T2238 000:686.629 - 0.016ms returns 0
T2238 000:686.642 JLINK_WriteReg(R5, 0x00000000)
T2238 000:686.653 - 0.016ms returns 0
T2238 000:686.665 JLINK_WriteReg(R6, 0x00000000)
T2238 000:686.677 - 0.017ms returns 0
T2238 000:686.689 JLINK_WriteReg(R7, 0x00000000)
T2238 000:686.700 - 0.016ms returns 0
T2238 000:686.713 JLINK_WriteReg(R8, 0x00000000)
T2238 000:686.724 - 0.017ms returns 0
T2238 000:686.736 JLINK_WriteReg(R9, 0x200001C8)
T2238 000:686.748 - 0.016ms returns 0
T2238 000:686.760 JLINK_WriteReg(R10, 0x00000000)
T2238 000:686.771 - 0.016ms returns 0
T2238 000:686.783 JLINK_WriteReg(R11, 0x00000000)
T2238 000:686.795 - 0.016ms returns 0
T2238 000:686.807 JLINK_WriteReg(R12, 0x00000000)
T2238 000:686.818 - 0.016ms returns 0
T2238 000:686.830 JLINK_WriteReg(R13 (SP), 0x20000C00)
T2238 000:686.842 - 0.017ms returns 0
T2238 000:686.855 JLINK_WriteReg(R14, 0x1FFFFC01)
T2238 000:686.866 - 0.016ms returns 0
T2238 000:686.878 JLINK_WriteReg(R15 (PC), 0x1FFFFC68)
T2238 000:686.890 - 0.016ms returns 0
T2238 000:686.902 JLINK_WriteReg(XPSR, 0x01000000)
T2238 000:686.913 - 0.017ms returns 0
T2238 000:686.925 JLINK_WriteReg(MSP, 0x20000C00)
T2238 000:686.937 - 0.016ms returns 0
T2238 000:686.949 JLINK_WriteReg(PSP, 0x20000C00)
T2238 000:686.960 - 0.017ms returns 0
T2238 000:686.973 JLINK_WriteReg(CFBP, 0x00000000)
T2238 000:686.984 - 0.016ms returns 0
T2238 000:686.997 JLINK_SetBPEx(Addr = 0x1FFFFC00, Type = 0xFFFFFFF2)
T2238 000:687.010 - 0.018ms returns 0x00000002
T2238 000:687.022 JLINK_Go()
T2238 000:687.039   CPU_WriteMem(4 bytes @ 0xE0002000)
T2238 000:687.766   CPU_ReadMem(4 bytes @ 0xE0001000)
T2238 000:688.343   CPU_WriteMem(4 bytes @ 0xE0001000)
T2238 000:695.358 - 8.359ms
T2238 000:695.396 JLINK_IsHalted()
T2238 000:700.900 - 5.526ms returns TRUE
T2238 000:700.938 JLINK_ReadReg(R15 (PC))
T2238 000:700.956 - 0.024ms returns 0x1FFFFC00
T2238 000:700.973 JLINK_ClrBPEx(BPHandle = 0x00000002)
T2238 000:700.987 - 0.020ms returns 0x00
T2238 000:701.004 JLINK_ReadReg(R0)
T2238 000:701.017 - 0.020ms returns 0x00000001
T2238 000:701.034 JLINK_HasError()
T2238 000:701.051 JLINK_WriteReg(R0, 0x00000000)
T2238 000:701.065 - 0.021ms returns 0
T2238 000:701.081 JLINK_WriteReg(R1, 0x00000400)
T2238 000:701.095 - 0.020ms returns 0
T2238 000:701.111 JLINK_WriteReg(R2, 0x000000FF)
T2238 000:701.124 - 0.019ms returns 0
T2238 000:701.140 JLINK_WriteReg(R3, 0x00000000)
T2238 000:701.154 - 0.020ms returns 0
T2238 000:701.169 JLINK_WriteReg(R4, 0x00000000)
T2238 000:701.189 - 0.030ms returns 0
T2238 000:701.209 JLINK_WriteReg(R5, 0x00000000)
T2238 000:701.223 - 0.020ms returns 0
T2238 000:701.239 JLINK_WriteReg(R6, 0x00000000)
T2238 000:701.252 - 0.019ms returns 0
T2238 000:701.268 JLINK_WriteReg(R7, 0x00000000)
T2238 000:701.282 - 0.019ms returns 0
T2238 000:701.298 JLINK_WriteReg(R8, 0x00000000)
T2238 000:701.312 - 0.020ms returns 0
T2238 000:701.328 JLINK_WriteReg(R9, 0x200001C8)
T2238 000:701.343 - 0.020ms returns 0
T2238 000:701.359 JLINK_WriteReg(R10, 0x00000000)
T2238 000:701.373 - 0.021ms returns 0
T2238 000:701.389 JLINK_WriteReg(R11, 0x00000000)
T2238 000:701.400 - 0.016ms returns 0
T2238 000:701.413 JLINK_WriteReg(R12, 0x00000000)
T2238 000:701.425 - 0.016ms returns 0
T2238 000:701.438 JLINK_WriteReg(R13 (SP), 0x20000C00)
T2238 000:701.450 - 0.017ms returns 0
T2238 000:701.463 JLINK_WriteReg(R14, 0x1FFFFC01)
T2238 000:701.475 - 0.016ms returns 0
T2238 000:701.488 JLINK_WriteReg(R15 (PC), 0x1FFFFCBC)
T2238 000:701.500 - 0.016ms returns 0
T2238 000:701.513 JLINK_WriteReg(XPSR, 0x01000000)
T2238 000:701.525 - 0.016ms returns 0
T2238 000:701.538 JLINK_WriteReg(MSP, 0x20000C00)
T2238 000:701.549 - 0.016ms returns 0
T2238 000:701.563 JLINK_WriteReg(PSP, 0x20000C00)
T2238 000:701.574 - 0.017ms returns 0
T2238 000:701.588 JLINK_WriteReg(CFBP, 0x00000000)
T2238 000:701.599 - 0.016ms returns 0
T2238 000:701.612 JLINK_SetBPEx(Addr = 0x1FFFFC00, Type = 0xFFFFFFF2)
T2238 000:701.625 - 0.018ms returns 0x00000003
T2238 000:701.639 JLINK_Go()
T2238 000:701.655   CPU_WriteMem(4 bytes @ 0xE0002000)
T2238 000:702.345   CPU_ReadMem(4 bytes @ 0xE0001000)
T2238 000:703.355   CPU_WriteMem(4 bytes @ 0xE0001000)
T2238 000:710.768 - 9.147ms
T2238 000:710.802 JLINK_IsHalted()
T2238 000:711.760 - 0.966ms returns FALSE
T2238 000:711.778 JLINK_HasError()
T2238 000:728.427 JLINK_IsHalted()
T2238 000:734.461 - 6.050ms returns TRUE
T2238 000:734.488 JLINK_ReadReg(R15 (PC))
T2238 000:734.503 - 0.020ms returns 0x1FFFFC00
T2238 000:734.516 JLINK_ClrBPEx(BPHandle = 0x00000003)
T2238 000:734.529 - 0.018ms returns 0x00
T2238 000:734.541 JLINK_ReadReg(R0)
T2238 000:734.553 - 0.017ms returns 0x00000000
T2238 000:735.319 JLINK_HasError()
T2238 000:735.349 JLINK_WriteReg(R0, 0x00000400)
T2238 000:735.367 - 0.024ms returns 0
T2238 000:735.383 JLINK_WriteReg(R1, 0x00000400)
T2238 000:735.395 - 0.018ms returns 0
T2238 000:735.408 JLINK_WriteReg(R2, 0x000000FF)
T2238 000:735.419 - 0.017ms returns 0
T2238 000:735.434 JLINK_WriteReg(R3, 0x00000000)
T2238 000:735.445 - 0.017ms returns 0
T2238 000:735.458 JLINK_WriteReg(R4, 0x00000000)
T2238 000:735.469 - 0.016ms returns 0
T2238 000:735.481 JLINK_WriteReg(R5, 0x00000000)
T2238 000:735.493 - 0.016ms returns 0
T2238 000:735.505 JLINK_WriteReg(R6, 0x00000000)
T2238 000:735.517 - 0.016ms returns 0
T2238 000:735.529 JLINK_WriteReg(R7, 0x00000000)
T2238 000:735.540 - 0.016ms returns 0
T2238 000:735.552 JLINK_WriteReg(R8, 0x00000000)
T2238 000:735.564 - 0.017ms returns 0
T2238 000:735.576 JLINK_WriteReg(R9, 0x200001C8)
T2238 000:735.588 - 0.016ms returns 0
T2238 000:735.600 JLINK_WriteReg(R10, 0x00000000)
T2238 000:735.611 - 0.017ms returns 0
T2238 000:735.624 JLINK_WriteReg(R11, 0x00000000)
T2238 000:735.635 - 0.016ms returns 0
T2238 000:735.647 JLINK_WriteReg(R12, 0x00000000)
T2238 000:735.659 - 0.016ms returns 0
T2238 000:735.671 JLINK_WriteReg(R13 (SP), 0x20000C00)
T2238 000:735.683 - 0.017ms returns 0
T2238 000:735.695 JLINK_WriteReg(R14, 0x1FFFFC01)
T2238 000:735.707 - 0.017ms returns 0
T2238 000:735.719 JLINK_WriteReg(R15 (PC), 0x1FFFFC68)
T2238 000:735.730 - 0.016ms returns 0
T2238 000:735.742 JLINK_WriteReg(XPSR, 0x01000000)
T2238 000:735.754 - 0.016ms returns 0
T2238 000:735.766 JLINK_WriteReg(MSP, 0x20000C00)
T2238 000:735.778 - 0.016ms returns 0
T2238 000:735.790 JLINK_WriteReg(PSP, 0x20000C00)
T2238 000:735.801 - 0.017ms returns 0
T2238 000:735.814 JLINK_WriteReg(CFBP, 0x00000000)
T2238 000:735.825 - 0.017ms returns 0
T2238 000:735.837 JLINK_SetBPEx(Addr = 0x1FFFFC00, Type = 0xFFFFFFF2)
T2238 000:735.856 - 0.027ms returns 0x00000004
T2238 000:735.872 JLINK_Go()
T2238 000:735.889   CPU_WriteMem(4 bytes @ 0xE0002000)
T2238 000:736.786   CPU_ReadMem(4 bytes @ 0xE0001000)
T2238 000:737.354   CPU_WriteMem(4 bytes @ 0xE0001000)
T2238 000:744.780 - 8.922ms
T2238 000:744.809 JLINK_IsHalted()
T2238 000:750.153 - 5.371ms returns TRUE
T2238 000:750.198 JLINK_ReadReg(R15 (PC))
T2238 000:750.216 - 0.025ms returns 0x1FFFFC00
T2238 000:750.233 JLINK_ClrBPEx(BPHandle = 0x00000004)
T2238 000:750.248 - 0.020ms returns 0x00
T2238 000:750.264 JLINK_ReadReg(R0)
T2238 000:750.278 - 0.020ms returns 0x00000001
T2238 000:750.295 JLINK_HasError()
T2238 000:750.311 JLINK_WriteReg(R0, 0x00000400)
T2238 000:750.325 - 0.020ms returns 0
T2238 000:750.342 JLINK_WriteReg(R1, 0x00000400)
T2238 000:750.355 - 0.020ms returns 0
T2238 000:750.371 JLINK_WriteReg(R2, 0x000000FF)
T2238 000:750.385 - 0.020ms returns 0
T2238 000:750.401 JLINK_WriteReg(R3, 0x00000000)
T2238 000:750.414 - 0.020ms returns 0
T2238 000:750.430 JLINK_WriteReg(R4, 0x00000000)
T2238 000:750.444 - 0.019ms returns 0
T2238 000:750.459 JLINK_WriteReg(R5, 0x00000000)
T2238 000:750.473 - 0.019ms returns 0
T2238 000:750.489 JLINK_WriteReg(R6, 0x00000000)
T2238 000:750.502 - 0.019ms returns 0
T2238 000:750.518 JLINK_WriteReg(R7, 0x00000000)
T2238 000:750.531 - 0.019ms returns 0
T2238 000:750.547 JLINK_WriteReg(R8, 0x00000000)
T2238 000:750.561 - 0.020ms returns 0
T2238 000:750.577 JLINK_WriteReg(R9, 0x200001C8)
T2238 000:750.591 - 0.020ms returns 0
T2238 000:750.607 JLINK_WriteReg(R10, 0x00000000)
T2238 000:750.621 - 0.021ms returns 0
T2238 000:750.638 JLINK_WriteReg(R11, 0x00000000)
T2238 000:750.652 - 0.021ms returns 0
T2238 000:750.667 JLINK_WriteReg(R12, 0x00000000)
T2238 000:750.679 - 0.017ms returns 0
T2238 000:750.692 JLINK_WriteReg(R13 (SP), 0x20000C00)
T2238 000:750.704 - 0.017ms returns 0
T2238 000:750.718 JLINK_WriteReg(R14, 0x1FFFFC01)
T2238 000:750.729 - 0.016ms returns 0
T2238 000:750.743 JLINK_WriteReg(R15 (PC), 0x1FFFFCBC)
T2238 000:750.754 - 0.016ms returns 0
T2238 000:750.768 JLINK_WriteReg(XPSR, 0x01000000)
T2238 000:750.779 - 0.017ms returns 0
T2238 000:750.793 JLINK_WriteReg(MSP, 0x20000C00)
T2238 000:750.804 - 0.016ms returns 0
T2238 000:750.818 JLINK_WriteReg(PSP, 0x20000C00)
T2238 000:750.829 - 0.017ms returns 0
T2238 000:750.843 JLINK_WriteReg(CFBP, 0x00000000)
T2238 000:750.854 - 0.016ms returns 0
T2238 000:750.868 JLINK_SetBPEx(Addr = 0x1FFFFC00, Type = 0xFFFFFFF2)
T2238 000:750.880 - 0.018ms returns 0x00000005
T2238 000:750.894 JLINK_Go()
T2238 000:750.910   CPU_WriteMem(4 bytes @ 0xE0002000)
T2238 000:751.802   CPU_ReadMem(4 bytes @ 0xE0001000)
T2238 000:752.771   CPU_WriteMem(4 bytes @ 0xE0001000)
T2238 000:759.812 - 8.932ms
T2238 000:759.841 JLINK_IsHalted()
T2238 000:760.767 - 0.934ms returns FALSE
T2238 000:760.785 JLINK_HasError()
T2238 000:763.785 JLINK_IsHalted()
T2238 000:764.349 - 0.572ms returns FALSE
T2238 000:764.366 JLINK_HasError()
T2238 000:765.786 JLINK_IsHalted()
T2238 000:766.770 - 0.991ms returns FALSE
T2238 000:766.786 JLINK_HasError()
T2238 000:768.794 JLINK_IsHalted()
T2238 000:774.906 - 6.127ms returns TRUE
T2238 000:774.932 JLINK_ReadReg(R15 (PC))
T2238 000:774.949 - 0.024ms returns 0x1FFFFC00
T2238 000:774.964 JLINK_ClrBPEx(BPHandle = 0x00000005)
T2238 000:774.979 - 0.020ms returns 0x00
T2238 000:774.994 JLINK_ReadReg(R0)
T2238 000:775.007 - 0.020ms returns 0x00000000
T2238 000:775.791 JLINK_HasError()
T2238 000:775.810 JLINK_WriteReg(R0, 0x00000800)
T2238 000:775.825 - 0.019ms returns 0
T2238 000:775.838 JLINK_WriteReg(R1, 0x00000400)
T2238 000:775.849 - 0.017ms returns 0
T2238 000:775.862 JLINK_WriteReg(R2, 0x000000FF)
T2238 000:775.878 - 0.021ms returns 0
T2238 000:775.890 JLINK_WriteReg(R3, 0x00000000)
T2238 000:775.902 - 0.017ms returns 0
T2238 000:775.914 JLINK_WriteReg(R4, 0x00000000)
T2238 000:775.925 - 0.017ms returns 0
T2238 000:775.938 JLINK_WriteReg(R5, 0x00000000)
T2238 000:775.949 - 0.017ms returns 0
T2238 000:775.967 JLINK_WriteReg(R6, 0x00000000)
T2238 000:775.982 - 0.021ms returns 0
T2238 000:775.995 JLINK_WriteReg(R7, 0x00000000)
T2238 000:776.006 - 0.016ms returns 0
T2238 000:776.018 JLINK_WriteReg(R8, 0x00000000)
T2238 000:776.030 - 0.017ms returns 0
T2238 000:776.042 JLINK_WriteReg(R9, 0x200001C8)
T2238 000:776.053 - 0.016ms returns 0
T2238 000:776.066 JLINK_WriteReg(R10, 0x00000000)
T2238 000:776.077 - 0.017ms returns 0
T2238 000:776.090 JLINK_WriteReg(R11, 0x00000000)
T2238 000:776.101 - 0.017ms returns 0
T2238 000:776.113 JLINK_WriteReg(R12, 0x00000000)
T2238 000:776.125 - 0.016ms returns 0
T2238 000:776.137 JLINK_WriteReg(R13 (SP), 0x20000C00)
T2238 000:776.149 - 0.017ms returns 0
T2238 000:776.161 JLINK_WriteReg(R14, 0x1FFFFC01)
T2238 000:776.173 - 0.017ms returns 0
T2238 000:776.186 JLINK_WriteReg(R15 (PC), 0x1FFFFC68)
T2238 000:776.198 - 0.018ms returns 0
T2238 000:776.212 JLINK_WriteReg(XPSR, 0x01000000)
T2238 000:776.224 - 0.018ms returns 0
T2238 000:776.237 JLINK_WriteReg(MSP, 0x20000C00)
T2238 000:776.250 - 0.018ms returns 0
T2238 000:776.263 JLINK_WriteReg(PSP, 0x20000C00)
T2238 000:776.275 - 0.018ms returns 0
T2238 000:776.288 JLINK_WriteReg(CFBP, 0x00000000)
T2238 000:776.301 - 0.018ms returns 0
T2238 000:776.314 JLINK_SetBPEx(Addr = 0x1FFFFC00, Type = 0xFFFFFFF2)
T2238 000:776.328 - 0.020ms returns 0x00000006
T2238 000:776.342 JLINK_Go()
T2238 000:776.359   CPU_WriteMem(4 bytes @ 0xE0002000)
T2238 000:777.366   CPU_ReadMem(4 bytes @ 0xE0001000)
T2238 000:778.361   CPU_WriteMem(4 bytes @ 0xE0001000)
T2238 000:785.364 - 9.039ms
T2238 000:785.394 JLINK_IsHalted()
T2238 000:791.128 - 5.748ms returns TRUE
T2238 000:791.158 JLINK_ReadReg(R15 (PC))
T2238 000:791.175 - 0.023ms returns 0x1FFFFC00
T2238 000:791.193 JLINK_ClrBPEx(BPHandle = 0x00000006)
T2238 000:791.207 - 0.020ms returns 0x00
T2238 000:791.223 JLINK_ReadReg(R0)
T2238 000:791.237 - 0.020ms returns 0x00000001
T2238 000:791.254 JLINK_HasError()
T2238 000:791.270 JLINK_WriteReg(R0, 0x00000800)
T2238 000:791.284 - 0.021ms returns 0
T2238 000:791.300 JLINK_WriteReg(R1, 0x00000400)
T2238 000:791.314 - 0.020ms returns 0
T2238 000:791.330 JLINK_WriteReg(R2, 0x000000FF)
T2238 000:791.344 - 0.019ms returns 0
T2238 000:791.359 JLINK_WriteReg(R3, 0x00000000)
T2238 000:791.373 - 0.019ms returns 0
T2238 000:791.388 JLINK_WriteReg(R4, 0x00000000)
T2238 000:791.402 - 0.019ms returns 0
T2238 000:791.418 JLINK_WriteReg(R5, 0x00000000)
T2238 000:791.431 - 0.019ms returns 0
T2238 000:791.447 JLINK_WriteReg(R6, 0x00000000)
T2238 000:791.460 - 0.019ms returns 0
T2238 000:791.476 JLINK_WriteReg(R7, 0x00000000)
T2238 000:791.490 - 0.019ms returns 0
T2238 000:791.505 JLINK_WriteReg(R8, 0x00000000)
T2238 000:791.519 - 0.020ms returns 0
T2238 000:791.535 JLINK_WriteReg(R9, 0x200001C8)
T2238 000:791.548 - 0.019ms returns 0
T2238 000:791.564 JLINK_WriteReg(R10, 0x00000000)
T2238 000:791.578 - 0.020ms returns 0
T2238 000:791.595 JLINK_WriteReg(R11, 0x00000000)
T2238 000:791.609 - 0.021ms returns 0
T2238 000:791.624 JLINK_WriteReg(R12, 0x00000000)
T2238 000:791.636 - 0.017ms returns 0
T2238 000:791.649 JLINK_WriteReg(R13 (SP), 0x20000C00)
T2238 000:791.661 - 0.017ms returns 0
T2238 000:791.675 JLINK_WriteReg(R14, 0x1FFFFC01)
T2238 000:791.686 - 0.017ms returns 0
T2238 000:791.700 JLINK_WriteReg(R15 (PC), 0x1FFFFCBC)
T2238 000:791.711 - 0.017ms returns 0
T2238 000:791.725 JLINK_WriteReg(XPSR, 0x01000000)
T2238 000:791.737 - 0.017ms returns 0
T2238 000:791.750 JLINK_WriteReg(MSP, 0x20000C00)
T2238 000:791.762 - 0.016ms returns 0
T2238 000:791.775 JLINK_WriteReg(PSP, 0x20000C00)
T2238 000:791.787 - 0.016ms returns 0
T2238 000:791.800 JLINK_WriteReg(CFBP, 0x00000000)
T2238 000:791.812 - 0.016ms returns 0
T2238 000:791.825 JLINK_SetBPEx(Addr = 0x1FFFFC00, Type = 0xFFFFFFF2)
T2238 000:791.838 - 0.018ms returns 0x00000007
T2238 000:791.851 JLINK_Go()
T2238 000:791.867   CPU_WriteMem(4 bytes @ 0xE0002000)
T2238 000:792.357   CPU_ReadMem(4 bytes @ 0xE0001000)
T2238 000:793.396   CPU_WriteMem(4 bytes @ 0xE0001000)
T2238 000:800.388 - 8.560ms
T2238 000:800.428 JLINK_IsHalted()
T2238 000:801.397 - 0.983ms returns FALSE
T2238 000:801.425 JLINK_HasError()
T2238 000:804.402 JLINK_IsHalted()
T2238 000:805.419 - 1.028ms returns FALSE
T2238 000:805.440 JLINK_HasError()
T2238 000:808.403 JLINK_IsHalted()
T2238 000:814.464 - 6.078ms returns TRUE
T2238 000:814.493 JLINK_ReadReg(R15 (PC))
T2238 000:814.511 - 0.024ms returns 0x1FFFFC00
T2238 000:814.526 JLINK_ClrBPEx(BPHandle = 0x00000007)
T2238 000:814.541 - 0.021ms returns 0x00
T2238 000:814.556 JLINK_ReadReg(R0)
T2238 000:814.569 - 0.020ms returns 0x00000000
T2238 000:815.331 JLINK_HasError()
T2238 000:815.352 JLINK_WriteReg(R0, 0x00000C00)
T2238 000:815.368 - 0.021ms returns 0
T2238 000:815.382 JLINK_WriteReg(R1, 0x00000400)
T2238 000:815.398 - 0.022ms returns 0
T2238 000:815.411 JLINK_WriteReg(R2, 0x000000FF)
T2238 000:815.424 - 0.018ms returns 0
T2238 000:815.437 JLINK_WriteReg(R3, 0x00000000)
T2238 000:815.450 - 0.018ms returns 0
T2238 000:815.463 JLINK_WriteReg(R4, 0x00000000)
T2238 000:815.476 - 0.018ms returns 0
T2238 000:815.489 JLINK_WriteReg(R5, 0x00000000)
T2238 000:815.501 - 0.018ms returns 0
T2238 000:815.515 JLINK_WriteReg(R6, 0x00000000)
T2238 000:815.527 - 0.018ms returns 0
T2238 000:815.540 JLINK_WriteReg(R7, 0x00000000)
T2238 000:815.553 - 0.018ms returns 0
T2238 000:815.566 JLINK_WriteReg(R8, 0x00000000)
T2238 000:815.578 - 0.018ms returns 0
T2238 000:815.592 JLINK_WriteReg(R9, 0x200001C8)
T2238 000:815.604 - 0.018ms returns 0
T2238 000:815.617 JLINK_WriteReg(R10, 0x00000000)
T2238 000:815.629 - 0.018ms returns 0
T2238 000:815.643 JLINK_WriteReg(R11, 0x00000000)
T2238 000:815.655 - 0.018ms returns 0
T2238 000:815.668 JLINK_WriteReg(R12, 0x00000000)
T2238 000:815.681 - 0.018ms returns 0
T2238 000:815.694 JLINK_WriteReg(R13 (SP), 0x20000C00)
T2238 000:815.707 - 0.018ms returns 0
T2238 000:815.720 JLINK_WriteReg(R14, 0x1FFFFC01)
T2238 000:815.733 - 0.018ms returns 0
T2238 000:815.746 JLINK_WriteReg(R15 (PC), 0x1FFFFC68)
T2238 000:815.758 - 0.018ms returns 0
T2238 000:815.772 JLINK_WriteReg(XPSR, 0x01000000)
T2238 000:815.784 - 0.018ms returns 0
T2238 000:815.797 JLINK_WriteReg(MSP, 0x20000C00)
T2238 000:815.810 - 0.018ms returns 0
T2238 000:815.824 JLINK_WriteReg(PSP, 0x20000C00)
T2238 000:815.837 - 0.019ms returns 0
T2238 000:815.851 JLINK_WriteReg(CFBP, 0x00000000)
T2238 000:815.864 - 0.019ms returns 0
T2238 000:815.878 JLINK_SetBPEx(Addr = 0x1FFFFC00, Type = 0xFFFFFFF2)
T2238 000:815.890 - 0.017ms returns 0x00000008
T2238 000:815.901 JLINK_Go()
T2238 000:815.917   CPU_WriteMem(4 bytes @ 0xE0002000)
T2238 000:816.780   CPU_ReadMem(4 bytes @ 0xE0001000)
T2238 000:817.357   CPU_WriteMem(4 bytes @ 0xE0001000)
T2238 000:824.793 - 8.911ms
T2238 000:824.825 JLINK_IsHalted()
T2238 000:831.026 - 6.221ms returns TRUE
T2238 000:831.062 JLINK_ReadReg(R15 (PC))
T2238 000:831.080 - 0.024ms returns 0x1FFFFC00
T2238 000:831.097 JLINK_ClrBPEx(BPHandle = 0x00000008)
T2238 000:831.112 - 0.021ms returns 0x00
T2238 000:831.128 JLINK_ReadReg(R0)
T2238 000:831.142 - 0.020ms returns 0x00000001
T2238 000:831.159 JLINK_HasError()
T2238 000:831.176 JLINK_WriteReg(R0, 0x00000C00)
T2238 000:831.191 - 0.021ms returns 0
T2238 000:831.207 JLINK_WriteReg(R1, 0x00000400)
T2238 000:831.221 - 0.020ms returns 0
T2238 000:831.237 JLINK_WriteReg(R2, 0x000000FF)
T2238 000:831.250 - 0.020ms returns 0
T2238 000:831.266 JLINK_WriteReg(R3, 0x00000000)
T2238 000:831.280 - 0.020ms returns 0
T2238 000:831.296 JLINK_WriteReg(R4, 0x00000000)
T2238 000:831.309 - 0.020ms returns 0
T2238 000:831.325 JLINK_WriteReg(R5, 0x00000000)
T2238 000:831.339 - 0.019ms returns 0
T2238 000:831.355 JLINK_WriteReg(R6, 0x00000000)
T2238 000:831.368 - 0.019ms returns 0
T2238 000:831.384 JLINK_WriteReg(R7, 0x00000000)
T2238 000:831.397 - 0.020ms returns 0
T2238 000:831.413 JLINK_WriteReg(R8, 0x00000000)
T2238 000:831.427 - 0.020ms returns 0
T2238 000:831.443 JLINK_WriteReg(R9, 0x200001C8)
T2238 000:831.456 - 0.020ms returns 0
T2238 000:831.557 JLINK_WriteReg(R10, 0x00000000)
T2238 000:831.574 - 0.023ms returns 0
T2238 000:831.588 JLINK_WriteReg(R11, 0x00000000)
T2238 000:831.600 - 0.017ms returns 0
T2238 000:831.614 JLINK_WriteReg(R12, 0x00000000)
T2238 000:831.625 - 0.017ms returns 0
T2238 000:831.639 JLINK_WriteReg(R13 (SP), 0x20000C00)
T2238 000:831.651 - 0.017ms returns 0
T2238 000:831.664 JLINK_WriteReg(R14, 0x1FFFFC01)
T2238 000:831.676 - 0.017ms returns 0
T2238 000:831.689 JLINK_WriteReg(R15 (PC), 0x1FFFFCBC)
T2238 000:831.701 - 0.017ms returns 0
T2238 000:831.714 JLINK_WriteReg(XPSR, 0x01000000)
T2238 000:831.726 - 0.017ms returns 0
T2238 000:831.739 JLINK_WriteReg(MSP, 0x20000C00)
T2238 000:831.751 - 0.016ms returns 0
T2238 000:831.764 JLINK_WriteReg(PSP, 0x20000C00)
T2238 000:831.776 - 0.017ms returns 0
T2238 000:831.790 JLINK_WriteReg(CFBP, 0x00000000)
T2238 000:831.801 - 0.017ms returns 0
T2238 000:831.815 JLINK_SetBPEx(Addr = 0x1FFFFC00, Type = 0xFFFFFFF2)
T2238 000:831.828 - 0.018ms returns 0x00000009
T2238 000:831.842 JLINK_Go()
T2238 000:831.859   CPU_WriteMem(4 bytes @ 0xE0002000)
T2238 000:832.363   CPU_ReadMem(4 bytes @ 0xE0001000)
T2238 000:833.402   CPU_WriteMem(4 bytes @ 0xE0001000)
T2238 000:841.401 - 9.574ms
T2238 000:841.430 JLINK_IsHalted()
T2238 000:842.406 - 0.991ms returns FALSE
T2238 000:842.435 JLINK_HasError()
T2238 000:845.415 JLINK_IsHalted()
T2238 000:846.372 - 1.052ms returns FALSE
T2238 000:846.482 JLINK_HasError()
T2238 000:848.434 JLINK_IsHalted()
T2238 000:856.140 - 7.723ms returns TRUE
T2238 000:856.170 JLINK_ReadReg(R15 (PC))
T2238 000:856.188 - 0.024ms returns 0x1FFFFC00
T2238 000:856.203 JLINK_ClrBPEx(BPHandle = 0x00000009)
T2238 000:856.217 - 0.020ms returns 0x00
T2238 000:856.232 JLINK_ReadReg(R0)
T2238 000:856.246 - 0.020ms returns 0x00000000
T2238 000:857.022 JLINK_HasError()
T2238 000:857.042 JLINK_WriteReg(R0, 0x00001000)
T2238 000:857.057 - 0.020ms returns 0
T2238 000:857.070 JLINK_WriteReg(R1, 0x00000400)
T2238 000:857.081 - 0.017ms returns 0
T2238 000:857.094 JLINK_WriteReg(R2, 0x000000FF)
T2238 000:857.108 - 0.020ms returns 0
T2238 000:857.121 JLINK_WriteReg(R3, 0x00000000)
T2238 000:857.132 - 0.017ms returns 0
T2238 000:857.145 JLINK_WriteReg(R4, 0x00000000)
T2238 000:857.156 - 0.016ms returns 0
T2238 000:857.168 JLINK_WriteReg(R5, 0x00000000)
T2238 000:857.180 - 0.016ms returns 0
T2238 000:857.192 JLINK_WriteReg(R6, 0x00000000)
T2238 000:857.203 - 0.016ms returns 0
T2238 000:857.216 JLINK_WriteReg(R7, 0x00000000)
T2238 000:857.227 - 0.018ms returns 0
T2238 000:857.242 JLINK_WriteReg(R8, 0x00000000)
T2238 000:857.256 - 0.019ms returns 0
T2238 000:857.270 JLINK_WriteReg(R9, 0x200001C8)
T2238 000:857.284 - 0.019ms returns 0
T2238 000:857.298 JLINK_WriteReg(R10, 0x00000000)
T2238 000:857.312 - 0.020ms returns 0
T2238 000:857.327 JLINK_WriteReg(R11, 0x00000000)
T2238 000:857.341 - 0.020ms returns 0
T2238 000:857.354 JLINK_WriteReg(R12, 0x00000000)
T2238 000:857.365 - 0.016ms returns 0
T2238 000:857.378 JLINK_WriteReg(R13 (SP), 0x20000C00)
T2238 000:857.390 - 0.017ms returns 0
T2238 000:857.402 JLINK_WriteReg(R14, 0x1FFFFC01)
T2238 000:857.413 - 0.016ms returns 0
T2238 000:857.426 JLINK_WriteReg(R15 (PC), 0x1FFFFC68)
T2238 000:857.437 - 0.016ms returns 0
T2238 000:857.449 JLINK_WriteReg(XPSR, 0x01000000)
T2238 000:857.461 - 0.017ms returns 0
T2238 000:857.473 JLINK_WriteReg(MSP, 0x20000C00)
T2238 000:857.485 - 0.017ms returns 0
T2238 000:857.497 JLINK_WriteReg(PSP, 0x20000C00)
T2238 000:857.508 - 0.017ms returns 0
T2238 000:857.520 JLINK_WriteReg(CFBP, 0x00000000)
T2238 000:857.532 - 0.016ms returns 0
T2238 000:857.544 JLINK_SetBPEx(Addr = 0x1FFFFC00, Type = 0xFFFFFFF2)
T2238 000:857.557 - 0.018ms returns 0x0000000A
T2238 000:857.570 JLINK_Go()
T2238 000:857.586   CPU_WriteMem(4 bytes @ 0xE0002000)
T2238 000:858.368   CPU_ReadMem(4 bytes @ 0xE0001000)
T2238 000:859.390   CPU_WriteMem(4 bytes @ 0xE0001000)
T2238 000:866.822 - 9.272ms
T2238 000:866.854 JLINK_IsHalted()
T2238 000:872.474 - 5.636ms returns TRUE
T2238 000:872.585 JLINK_ReadReg(R15 (PC))
T2238 000:872.607 - 0.027ms returns 0x1FFFFC00
T2238 000:872.622 JLINK_ClrBPEx(BPHandle = 0x0000000A)
T2238 000:872.635 - 0.018ms returns 0x00
T2238 000:872.650 JLINK_ReadReg(R0)
T2238 000:872.661 - 0.017ms returns 0x00000001
T2238 000:872.677 JLINK_HasError()
T2238 000:872.692 JLINK_WriteReg(R0, 0x00001000)
T2238 000:872.704 - 0.017ms returns 0
T2238 000:872.718 JLINK_WriteReg(R1, 0x00000400)
T2238 000:872.730 - 0.017ms returns 0
T2238 000:872.744 JLINK_WriteReg(R2, 0x000000FF)
T2238 000:872.756 - 0.017ms returns 0
T2238 000:872.770 JLINK_WriteReg(R3, 0x00000000)
T2238 000:872.781 - 0.016ms returns 0
T2238 000:872.795 JLINK_WriteReg(R4, 0x00000000)
T2238 000:872.807 - 0.016ms returns 0
T2238 000:872.821 JLINK_WriteReg(R5, 0x00000000)
T2238 000:872.832 - 0.017ms returns 0
T2238 000:872.846 JLINK_WriteReg(R6, 0x00000000)
T2238 000:872.858 - 0.017ms returns 0
T2238 000:872.872 JLINK_WriteReg(R7, 0x00000000)
T2238 000:872.883 - 0.016ms returns 0
T2238 000:872.897 JLINK_WriteReg(R8, 0x00000000)
T2238 000:872.909 - 0.017ms returns 0
T2238 000:872.923 JLINK_WriteReg(R9, 0x200001C8)
T2238 000:872.934 - 0.016ms returns 0
T2238 000:872.949 JLINK_WriteReg(R10, 0x00000000)
T2238 000:872.960 - 0.016ms returns 0
T2238 000:872.974 JLINK_WriteReg(R11, 0x00000000)
T2238 000:872.986 - 0.016ms returns 0
T2238 000:873.000 JLINK_WriteReg(R12, 0x00000000)
T2238 000:873.011 - 0.017ms returns 0
T2238 000:873.025 JLINK_WriteReg(R13 (SP), 0x20000C00)
T2238 000:873.037 - 0.017ms returns 0
T2238 000:873.051 JLINK_WriteReg(R14, 0x1FFFFC01)
T2238 000:873.062 - 0.017ms returns 0
T2238 000:873.076 JLINK_WriteReg(R15 (PC), 0x1FFFFCBC)
T2238 000:873.088 - 0.017ms returns 0
T2238 000:873.102 JLINK_WriteReg(XPSR, 0x01000000)
T2238 000:873.114 - 0.016ms returns 0
T2238 000:873.128 JLINK_WriteReg(MSP, 0x20000C00)
T2238 000:873.139 - 0.016ms returns 0
T2238 000:873.153 JLINK_WriteReg(PSP, 0x20000C00)
T2238 000:873.165 - 0.017ms returns 0
T2238 000:873.179 JLINK_WriteReg(CFBP, 0x00000000)
T2238 000:873.191 - 0.018ms returns 0
T2238 000:873.205 JLINK_SetBPEx(Addr = 0x1FFFFC00, Type = 0xFFFFFFF2)
T2238 000:873.218 - 0.018ms returns 0x0000000B
T2238 000:873.232 JLINK_Go()
T2238 000:873.248   CPU_WriteMem(4 bytes @ 0xE0002000)
T2238 000:873.789   CPU_ReadMem(4 bytes @ 0xE0001000)
T2238 000:874.364   CPU_WriteMem(4 bytes @ 0xE0001000)
T2238 000:881.814 - 8.612ms
T2238 000:881.861 JLINK_IsHalted()
T2238 000:882.363 - 0.510ms returns FALSE
T2238 000:882.382 JLINK_HasError()
T2238 000:888.231 JLINK_IsHalted()
T2238 000:894.001 - 5.787ms returns TRUE
T2238 000:894.029 JLINK_ReadReg(R15 (PC))
T2238 000:894.046 - 0.023ms returns 0x1FFFFC00
T2238 000:894.062 JLINK_ClrBPEx(BPHandle = 0x0000000B)
T2238 000:894.076 - 0.020ms returns 0x00
T2238 000:894.091 JLINK_ReadReg(R0)
T2238 000:894.104 - 0.020ms returns 0x00000000
T2238 000:894.619 JLINK_HasError()
T2238 000:894.638 JLINK_WriteReg(R0, 0x00000001)
T2238 000:894.652 - 0.019ms returns 0
T2238 000:894.665 JLINK_WriteReg(R1, 0x00000400)
T2238 000:894.677 - 0.017ms returns 0
T2238 000:894.689 JLINK_WriteReg(R2, 0x000000FF)
T2238 000:894.700 - 0.017ms returns 0
T2238 000:894.713 JLINK_WriteReg(R3, 0x00000000)
T2238 000:894.724 - 0.016ms returns 0
T2238 000:894.736 JLINK_WriteReg(R4, 0x00000000)
T2238 000:894.748 - 0.016ms returns 0
T2238 000:894.760 JLINK_WriteReg(R5, 0x00000000)
T2238 000:894.771 - 0.016ms returns 0
T2238 000:894.783 JLINK_WriteReg(R6, 0x00000000)
T2238 000:894.795 - 0.016ms returns 0
T2238 000:894.807 JLINK_WriteReg(R7, 0x00000000)
T2238 000:894.818 - 0.016ms returns 0
T2238 000:894.831 JLINK_WriteReg(R8, 0x00000000)
T2238 000:894.842 - 0.016ms returns 0
T2238 000:894.854 JLINK_WriteReg(R9, 0x200001C8)
T2238 000:894.866 - 0.016ms returns 0
T2238 000:894.878 JLINK_WriteReg(R10, 0x00000000)
T2238 000:894.889 - 0.016ms returns 0
T2238 000:894.901 JLINK_WriteReg(R11, 0x00000000)
T2238 000:894.913 - 0.016ms returns 0
T2238 000:894.925 JLINK_WriteReg(R12, 0x00000000)
T2238 000:895.016 - 0.101ms returns 0
T2238 000:895.034 JLINK_WriteReg(R13 (SP), 0x20000C00)
T2238 000:895.046 - 0.018ms returns 0
T2238 000:895.059 JLINK_WriteReg(R14, 0x1FFFFC01)
T2238 000:895.070 - 0.017ms returns 0
T2238 000:895.083 JLINK_WriteReg(R15 (PC), 0x1FFFFC64)
T2238 000:895.094 - 0.017ms returns 0
T2238 000:895.106 JLINK_WriteReg(XPSR, 0x01000000)
T2238 000:895.118 - 0.017ms returns 0
T2238 000:895.130 JLINK_WriteReg(MSP, 0x20000C00)
T2238 000:895.142 - 0.017ms returns 0
T2238 000:895.154 JLINK_WriteReg(PSP, 0x20000C00)
T2238 000:895.165 - 0.017ms returns 0
T2238 000:895.179 JLINK_WriteReg(CFBP, 0x00000000)
T2238 000:895.192 - 0.018ms returns 0
T2238 000:895.205 JLINK_SetBPEx(Addr = 0x1FFFFC00, Type = 0xFFFFFFF2)
T2238 000:895.219 - 0.020ms returns 0x0000000C
T2238 000:895.233 JLINK_Go()
T2238 000:895.252   CPU_WriteMem(4 bytes @ 0xE0002000)
T2238 000:896.384   CPU_ReadMem(4 bytes @ 0xE0001000)
T2238 000:897.373   CPU_WriteMem(4 bytes @ 0xE0001000)
T2238 000:904.394 - 9.178ms
T2238 000:904.425 JLINK_IsHalted()
T2238 000:909.927 - 5.516ms returns TRUE
T2238 000:909.956 JLINK_ReadReg(R15 (PC))
T2238 000:909.973 - 0.024ms returns 0x1FFFFC00
T2238 000:909.991 JLINK_ClrBPEx(BPHandle = 0x0000000C)
T2238 000:910.005 - 0.020ms returns 0x00
T2238 000:910.021 JLINK_ReadReg(R0)
T2238 000:910.035 - 0.020ms returns 0x00000000
T2238 000:969.041 JLINK_WriteMem(0x1FFFFC00, 0x5D0 Bytes, ...)
T2238 000:969.063   Data:  00 BE 0A E0 0D 78 2D 06 68 40 08 24 40 00 00 D3 ...
T2238 000:969.096   CPU_WriteMem(1488 bytes @ 0x1FFFFC00)
T2238 000:986.406 - 17.396ms returns 0x5D0
T2238 000:986.515 JLINK_HasError()
T2238 000:986.534 JLINK_WriteReg(R0, 0x00000000)
T2238 000:986.553 - 0.025ms returns 0
T2238 000:986.568 JLINK_WriteReg(R1, 0x00B71B00)
T2238 000:986.582 - 0.020ms returns 0
T2238 000:986.596 JLINK_WriteReg(R2, 0x00000002)
T2238 000:986.610 - 0.020ms returns 0
T2238 000:986.624 JLINK_WriteReg(R3, 0x00000000)
T2238 000:986.638 - 0.019ms returns 0
T2238 000:986.652 JLINK_WriteReg(R4, 0x00000000)
T2238 000:986.665 - 0.019ms returns 0
T2238 000:986.680 JLINK_WriteReg(R5, 0x00000000)
T2238 000:986.693 - 0.019ms returns 0
T2238 000:986.707 JLINK_WriteReg(R6, 0x00000000)
T2238 000:986.720 - 0.019ms returns 0
T2238 000:986.734 JLINK_WriteReg(R7, 0x00000000)
T2238 000:986.748 - 0.019ms returns 0
T2238 000:986.762 JLINK_WriteReg(R8, 0x00000000)
T2238 000:986.775 - 0.019ms returns 0
T2238 000:986.789 JLINK_WriteReg(R9, 0x200001C8)
T2238 000:986.805 - 0.022ms returns 0
T2238 000:986.820 JLINK_WriteReg(R10, 0x00000000)
T2238 000:986.833 - 0.020ms returns 0
T2238 000:986.848 JLINK_WriteReg(R11, 0x00000000)
T2238 000:986.861 - 0.020ms returns 0
T2238 000:986.876 JLINK_WriteReg(R12, 0x00000000)
T2238 000:986.890 - 0.020ms returns 0
T2238 000:986.905 JLINK_WriteReg(R13 (SP), 0x20000C00)
T2238 000:986.920 - 0.021ms returns 0
T2238 000:986.935 JLINK_WriteReg(R14, 0x1FFFFC01)
T2238 000:986.950 - 0.019ms returns 0
T2238 000:986.962 JLINK_WriteReg(R15 (PC), 0x1FFFFC20)
T2238 000:986.974 - 0.017ms returns 0
T2238 000:986.986 JLINK_WriteReg(XPSR, 0x01000000)
T2238 000:986.998 - 0.017ms returns 0
T2238 000:987.010 JLINK_WriteReg(MSP, 0x20000C00)
T2238 000:987.021 - 0.016ms returns 0
T2238 000:987.033 JLINK_WriteReg(PSP, 0x20000C00)
T2238 000:987.045 - 0.016ms returns 0
T2238 000:987.057 JLINK_WriteReg(CFBP, 0x00000000)
T2238 000:987.068 - 0.016ms returns 0
T2238 000:987.080 JLINK_SetBPEx(Addr = 0x1FFFFC00, Type = 0xFFFFFFF2)
T2238 000:987.094 - 0.019ms returns 0x0000000D
T2238 000:987.106 JLINK_Go()
T2238 000:987.124   CPU_WriteMem(4 bytes @ 0xE0002000)
T2238 000:987.802   CPU_ReadMem(4 bytes @ 0xE0001000)
T2238 000:988.379   CPU_WriteMem(4 bytes @ 0xE0001000)
T2238 000:995.421 - 8.330ms
T2238 000:995.449 JLINK_IsHalted()
T2238 001:000.914 - 5.484ms returns TRUE
T2238 001:000.944 JLINK_ReadReg(R15 (PC))
T2238 001:000.959 - 0.020ms returns 0x1FFFFC00
T2238 001:000.972 JLINK_ClrBPEx(BPHandle = 0x0000000D)
T2238 001:000.984 - 0.017ms returns 0x00
T2238 001:000.997 JLINK_ReadReg(R0)
T2238 001:001.093 - 0.101ms returns 0x00000000
T2238 001:001.573 JLINK_WriteMem(0x200001F8, 0x100 Bytes, ...)
T2238 001:001.590   Data:  D8 FF FF 1F 75 01 00 00 7D 01 00 00 7F 01 00 00 ...
T2238 001:001.618   CPU_WriteMem(256 bytes @ 0x200001F8)
T2238 001:005.947 - 4.388ms returns 0x100
T2238 001:005.974 JLINK_HasError()
T2238 001:005.990 JLINK_WriteReg(R0, 0x00000000)
T2238 001:006.007 - 0.023ms returns 0
T2238 001:006.022 JLINK_WriteReg(R1, 0x00000100)
T2238 001:006.036 - 0.020ms returns 0
T2238 001:006.051 JLINK_WriteReg(R2, 0x200001F8)
T2238 001:006.064 - 0.020ms returns 0
T2238 001:006.078 JLINK_WriteReg(R3, 0x00000000)
T2238 001:006.092 - 0.019ms returns 0
T2238 001:006.106 JLINK_WriteReg(R4, 0x00000000)
T2238 001:006.120 - 0.019ms returns 0
T2238 001:006.134 JLINK_WriteReg(R5, 0x00000000)
T2238 001:006.147 - 0.019ms returns 0
T2238 001:006.162 JLINK_WriteReg(R6, 0x00000000)
T2238 001:006.175 - 0.019ms returns 0
T2238 001:006.189 JLINK_WriteReg(R7, 0x00000000)
T2238 001:006.203 - 0.019ms returns 0
T2238 001:006.217 JLINK_WriteReg(R8, 0x00000000)
T2238 001:006.231 - 0.019ms returns 0
T2238 001:006.245 JLINK_WriteReg(R9, 0x200001C8)
T2238 001:006.258 - 0.019ms returns 0
T2238 001:006.273 JLINK_WriteReg(R10, 0x00000000)
T2238 001:006.286 - 0.022ms returns 0
T2238 001:006.303 JLINK_WriteReg(R11, 0x00000000)
T2238 001:006.317 - 0.020ms returns 0
T2238 001:006.331 JLINK_WriteReg(R12, 0x00000000)
T2238 001:006.345 - 0.020ms returns 0
T2238 001:006.359 JLINK_WriteReg(R13 (SP), 0x20000C00)
T2238 001:006.373 - 0.020ms returns 0
T2238 001:006.387 JLINK_WriteReg(R14, 0x1FFFFC01)
T2238 001:006.401 - 0.020ms returns 0
T2238 001:006.415 JLINK_WriteReg(R15 (PC), 0x1FFFFCD4)
T2238 001:006.430 - 0.020ms returns 0
T2238 001:006.444 JLINK_WriteReg(XPSR, 0x01000000)
T2238 001:006.457 - 0.018ms returns 0
T2238 001:006.469 JLINK_WriteReg(MSP, 0x20000C00)
T2238 001:006.481 - 0.016ms returns 0
T2238 001:006.493 JLINK_WriteReg(PSP, 0x20000C00)
T2238 001:006.504 - 0.017ms returns 0
T2238 001:006.516 JLINK_WriteReg(CFBP, 0x00000000)
T2238 001:006.528 - 0.016ms returns 0
T2238 001:006.540 JLINK_SetBPEx(Addr = 0x1FFFFC00, Type = 0xFFFFFFF2)
T2238 001:006.553 - 0.018ms returns 0x0000000E
T2238 001:006.565 JLINK_Go()
T2238 001:006.580   CPU_WriteMem(4 bytes @ 0xE0002000)
T2238 001:007.403   CPU_ReadMem(4 bytes @ 0xE0001000)
T2238 001:008.429   CPU_WriteMem(4 bytes @ 0xE0001000)
T2238 001:015.424 - 8.874ms
T2238 001:015.455 JLINK_IsHalted()
T2238 001:016.419 - 0.977ms returns FALSE
T2238 001:016.447 JLINK_HasError()
T2238 001:020.333 JLINK_IsHalted()
T2238 001:026.660 - 6.354ms returns TRUE
T2238 001:026.701 JLINK_ReadReg(R15 (PC))
T2238 001:026.719 - 0.025ms returns 0x1FFFFC00
T2238 001:026.735 JLINK_ClrBPEx(BPHandle = 0x0000000E)
T2238 001:026.749 - 0.020ms returns 0x00
T2238 001:026.764 JLINK_ReadReg(R0)
T2238 001:026.778 - 0.020ms returns 0x00000000
T2238 001:027.551 JLINK_WriteMem(0x200001F8, 0x100 Bytes, ...)
T2238 001:027.570   Data:  7C 11 00 00 10 3A 02 D3 78 C8 78 C1 FA D8 52 07 ...
T2238 001:027.597   CPU_WriteMem(256 bytes @ 0x200001F8)
T2238 001:031.830 - 4.304ms returns 0x100
T2238 001:031.869 JLINK_HasError()
T2238 001:031.884 JLINK_WriteReg(R0, 0x00000100)
T2238 001:031.901 - 0.022ms returns 0
T2238 001:031.914 JLINK_WriteReg(R1, 0x00000100)
T2238 001:031.926 - 0.017ms returns 0
T2238 001:031.939 JLINK_WriteReg(R2, 0x200001F8)
T2238 001:031.950 - 0.017ms returns 0
T2238 001:031.963 JLINK_WriteReg(R3, 0x00000000)
T2238 001:031.974 - 0.016ms returns 0
T2238 001:031.986 JLINK_WriteReg(R4, 0x00000000)
T2238 001:031.998 - 0.016ms returns 0
T2238 001:032.010 JLINK_WriteReg(R5, 0x00000000)
T2238 001:032.021 - 0.016ms returns 0
T2238 001:032.033 JLINK_WriteReg(R6, 0x00000000)
T2238 001:032.045 - 0.016ms returns 0
T2238 001:032.057 JLINK_WriteReg(R7, 0x00000000)
T2238 001:032.068 - 0.016ms returns 0
T2238 001:032.080 JLINK_WriteReg(R8, 0x00000000)
T2238 001:032.092 - 0.016ms returns 0
T2238 001:032.104 JLINK_WriteReg(R9, 0x200001C8)
T2238 001:032.196 - 0.103ms returns 0
T2238 001:032.215 JLINK_WriteReg(R10, 0x00000000)
T2238 001:032.226 - 0.017ms returns 0
T2238 001:032.239 JLINK_WriteReg(R11, 0x00000000)
T2238 001:032.250 - 0.017ms returns 0
T2238 001:032.263 JLINK_WriteReg(R12, 0x00000000)
T2238 001:032.274 - 0.017ms returns 0
T2238 001:032.287 JLINK_WriteReg(R13 (SP), 0x20000C00)
T2238 001:032.299 - 0.018ms returns 0
T2238 001:032.314 JLINK_WriteReg(R14, 0x1FFFFC01)
T2238 001:032.325 - 0.017ms returns 0
T2238 001:032.338 JLINK_WriteReg(R15 (PC), 0x1FFFFCD4)
T2238 001:032.350 - 0.017ms returns 0
T2238 001:032.362 JLINK_WriteReg(XPSR, 0x01000000)
T2238 001:032.374 - 0.017ms returns 0
T2238 001:032.386 JLINK_WriteReg(MSP, 0x20000C00)
T2238 001:032.398 - 0.016ms returns 0
T2238 001:032.410 JLINK_WriteReg(PSP, 0x20000C00)
T2238 001:032.421 - 0.017ms returns 0
T2238 001:032.433 JLINK_WriteReg(CFBP, 0x00000000)
T2238 001:032.445 - 0.016ms returns 0
T2238 001:032.457 JLINK_SetBPEx(Addr = 0x1FFFFC00, Type = 0xFFFFFFF2)
T2238 001:032.471 - 0.019ms returns 0x0000000F
T2238 001:032.483 JLINK_Go()
T2238 001:032.501   CPU_WriteMem(4 bytes @ 0xE0002000)
T2238 001:033.403   CPU_ReadMem(4 bytes @ 0xE0001000)
T2238 001:034.410   CPU_WriteMem(4 bytes @ 0xE0001000)
T2238 001:041.392 - 8.920ms
T2238 001:041.414 JLINK_IsHalted()
T2238 001:042.382 - 0.976ms returns FALSE
T2238 001:042.402 JLINK_HasError()
T2238 001:043.787 JLINK_IsHalted()
T2238 001:044.389 - 0.614ms returns FALSE
T2238 001:044.412 JLINK_HasError()
T2238 001:045.766 JLINK_IsHalted()
T2238 001:046.399 - 0.648ms returns FALSE
T2238 001:046.427 JLINK_HasError()
T2238 001:047.882 JLINK_IsHalted()
T2238 001:053.933 - 6.065ms returns TRUE
T2238 001:053.958 JLINK_ReadReg(R15 (PC))
T2238 001:053.976 - 0.024ms returns 0x1FFFFC00
T2238 001:053.992 JLINK_ClrBPEx(BPHandle = 0x0000000F)
T2238 001:054.006 - 0.020ms returns 0x00
T2238 001:054.021 JLINK_ReadReg(R0)
